
T0918 000:828 SEGGER J-Link V4.15n (beta) Log File (0001ms, 0827ms total)
T0918 000:828 DLL Compiled: Jun 18 2010 19:55:09 (0001ms, 0827ms total)
T0918 000:828 Logging started @ 2014-07-16 16:50 (0001ms, 0827ms total)
T0918 000:829 JLINK_SetWarnOutHandler(...) (0000ms, 0828ms total)
T0918 000:829 JLINK_OpenEx(...)
Firmware: J-Link ARM-OB STM32 compiled Aug 22 2012 19:52:04
Hardware: V7.00
S/N: 377001345
Feature(s): RDI,FlashDL,FlashBP,JFlash,GDBFull  returns O.K. (0112ms, 0828ms total)
T0918 000:941 JLINK_SetErrorOutHandler(...) (0000ms, 0940ms total)
T0918 000:941 JLINK_ExecCommand("ProjectFile = "G:\EE\6\Microprosessor\Project\ARM+PC\Main Board\18\JLinkSettings.ini"", ...)  returns 0x00 (0000ms, 0940ms total)
T0918 000:942 JLINK_ExecCommand("DisableConnectionTimeout", ...)  returns 0x00 (0000ms, 0940ms total)
T0918 000:943 JLINK_TIF_Select(JLINKARM_TIF_SWD)  returns 0x00 (0001ms, 0940ms total)
T0918 000:944 JLINK_SetSpeed(5000) (0000ms, 0941ms total)
T0918 000:944 JLINK_GetHardwareVersion()  returns 0x11170 (0000ms, 0941ms total)
T0918 000:945 JLINK_GetDLLVersion()  returns 41514 (0000ms, 0941ms total)
T0918 000:945 JLINK_GetFirmwareString(...) (0000ms, 0941ms total)
T0918 000:947 JLINK_GetDLLVersion()  returns 41514 (0000ms, 0941ms total)
T0918 000:947 JLINK_GetCompileDateTime() (0000ms, 0941ms total)
T0918 000:948 JLINK_GetFirmwareString(...) (0000ms, 0941ms total)
T0918 000:949 JLINK_GetHardwareVersion()  returns 0x11170 (0000ms, 0941ms total)
T0918 000:952 JLINK_Reset() >0x108 TIF>Found SWD-DP with ID 0x2BA01477 >0x33 TIF> >0x33 TIF> >0x35 TIF> >0x33 TIF> >0x33 TIF> >0x9B TIF> >0x9B TIF> >0x1D7 TIF> >0x13A TIF> >0x1D7 TIF> >0x13A TIF>TPIU fitted. >0x13A TIF>ETM fitted. >0x13A TIF>  FPUnit: 6 code (BP) slots and 2 literal slots >0x13A TIF> >0x13A TIF> >0x1D7 TIF> >0x1D7 TIF> >0x20C TIF> >0x13A TIF> >0x13A TIF> >0x1D7 TIF> >0x1D7 TIF> >0x13A TIF> >0x13A TIF> >0x11E4 TIF> >0x1D7 TIF> >0x13A TIF> >0x11E4 TIF> (0054ms, 0941ms total)
T0918 001:006 JLINK_JTAG_StoreRaw(..., 0x108 Bits)  returns 0x00 (0000ms, 0995ms total)
T0918 001:006 JLINK_JTAG_GetU32(BitPos = 227) >0x108 TIF>  returns 0x2BA01477 (0001ms, 0995ms total)
T0918 001:007 JLINK_GetDebugInfo(0x100) -- Value=0xE00FF003  returns 0x00 (0001ms, 0996ms total)
T0918 001:011 JLINK_ReadMem (0xE00FF000, 0x0018 Bytes, ...) -- CPU_ReadMem(24 bytes @ 0xE00FF000) -- Data:  03 F0 F0 FF 03 20 F0 FF 03 30 F0 FF 03 10 F0 FF ...  returns 0x00 (0002ms, 0997ms total)
T0918 001:013 JLINK_ReadMemU32(0xE000ED00, 0x0001 Items, ...) -- CPU_ReadMem(4 bytes @ 0xE000ED00) -- Data:  30 C2 2F 41  returns 0x01 (0001ms, 0999ms total)
T0918 001:016 JLINK_Halt()  returns 0x00 (0000ms, 1000ms total)
T0918 001:016 JLINK_IsHalted()  returns TRUE (0000ms, 1000ms total)
T0918 001:016 JLINK_ReadMemU32(0xE000EDF0, 0x0001 Items, ...) -- CPU_ReadMem(4 bytes @ 0xE000EDF0) -- Data:  03 00 03 00  returns 0x01 (0001ms, 1000ms total)
T0918 001:017 JLINK_WriteU32(0xE000EDF0, 0xA05F0003) -- CPU_WriteMem(4 bytes @ 0xE000EDF0)  returns 0x00 (0001ms, 1001ms total)
T0918 001:019 JLINK_WriteU32(0xE000EDFC, 0x01000000) -- CPU_WriteMem(4 bytes @ 0xE000EDFC)  returns 0x00 (0001ms, 1002ms total)
T0918 001:020 JLINK_ReadMemU32(0xE0002000, 0x0001 Items, ...) -- CPU_ReadMem(4 bytes @ 0xE0002000) -- Data:  60 02 00 00  returns 0x01 (0001ms, 1003ms total)
T0918 001:021 JLINK_ReadMemU32(0xE0001000, 0x0001 Items, ...) -- CPU_ReadMem(4 bytes @ 0xE0001000) -- Data:  00 00 00 40  returns 0x01 (0001ms, 1004ms total)
T0918 001:030 JLINK_ExecCommand("Device = LPC1766", ...)
                JLINK_ExecCommand("map ram 0x10000000 - 0x10007FFF", ...)  returns 0x00 (0000ms, 0000ms total)
                JLINK_AddMirrorAreaEx(Addr = 0x00000000, Size = 0x00000000) (0000ms, 0000ms total)
                returns 0x00 (0001ms, 1005ms total)
T0918 001:031 JLINK_GetHWStatus(...)  returns 0x00 (0002ms, 1006ms total)
T0918 001:039 JLINK_GetNumBPUnits(Type = 0xFFFFFF00) >0x108 TIF>Found SWD-DP with ID 0x2BA01477 >0x33 TIF> >0x33 TIF> >0x35 TIF> >0x33 TIF> >0x35 TIF> >0x33 TIF> >0x33 TIF> >0x9B TIF> >0x9B TIF> >0x1D7 TIF> >0x13A TIF> >0x13A TIF>TPIU fitted. >0x13A TIF>ETM fitted. >0x13A TIF>  FPUnit: 6 code (BP) slots and 2 literal slots >0x13A TIF> >0x13A TIF>  returns 0x06 (0028ms, 1008ms total)
T0918 001:067 JLINK_GetNumBPUnits(Type = 0xF0)  returns 0x800 (0000ms, 1036ms total)
T0918 001:067 JLINK_GetNumWPUnits()  returns 0x04 (0000ms, 1036ms total)
T0918 001:073 JLINK_GetSpeed()  returns 0xFA0 (0000ms, 1036ms total)
T0918 001:077 JLINK_ReadMemU32(0xE000E004, 0x0001 Items, ...) -- CPU_ReadMem(4 bytes @ 0xE000E004) -- Data:  01 00 00 00  returns 0x01 (0001ms, 1036ms total)
T0918 001:078 JLINK_WriteMem(0xE0001000, 0x001C Bytes, ...) -- Data:  01 00 00 00 00 00 00 00 00 00 00 00 00 00 00 00 ... -- CPU_WriteMem(28 bytes @ 0xE0001000)  returns 0x1C (0001ms, 1037ms total)
T0918 001:079 JLINK_ReadMem (0xE0001000, 0x001C Bytes, ...) -- CPU_ReadMem(28 bytes @ 0xE0001000) -- Data:  01 00 00 40 00 00 00 00 00 00 00 00 00 00 00 00 ...  returns 0x00 (0002ms, 1038ms total)
T0918 001:081 JLINK_Halt()  returns 0x00 (0000ms, 1040ms total)
T0918 001:081 JLINK_IsHalted()  returns TRUE (0000ms, 1040ms total)
T0918 001:085 JLINK_WriteMem(0x10000000, 0x017C Bytes, ...) -- Data:  00 BE 0A E0 0D 78 2D 06 68 40 08 24 40 00 00 D3 ... -- CPU_WriteMem(380 bytes @ 0x10000000)  returns 0x17C (0006ms, 1040ms total)
T0918 001:091 JLINK_WriteReg(R0, 0x00000000)  returns 0x00 (0000ms, 1046ms total)
T0918 001:091 JLINK_WriteReg(R1, 0x00B71B00)  returns 0x00 (0000ms, 1046ms total)
T0918 001:091 JLINK_WriteReg(R2, 0x00000001)  returns 0x00 (0000ms, 1046ms total)
T0918 001:091 JLINK_WriteReg(R3, 0x00000000)  returns 0x00 (0000ms, 1046ms total)
T0918 001:091 JLINK_WriteReg(R4, 0x00000000)  returns 0x00 (0000ms, 1046ms total)
T0918 001:091 JLINK_WriteReg(R5, 0x00000000)  returns 0x00 (0000ms, 1046ms total)
T0918 001:091 JLINK_WriteReg(R6, 0x00000000)  returns 0x00 (0000ms, 1046ms total)
T0918 001:091 JLINK_WriteReg(R7, 0x00000000)  returns 0x00 (0000ms, 1046ms total)
T0918 001:091 JLINK_WriteReg(R8, 0x00000000)  returns 0x00 (0000ms, 1046ms total)
T0918 001:091 JLINK_WriteReg(R9, 0x10000174)  returns 0x00 (0000ms, 1046ms total)
T0918 001:091 JLINK_WriteReg(R10, 0x00000000)  returns 0x00 (0000ms, 1046ms total)
T0918 001:091 JLINK_WriteReg(R11, 0x00000000)  returns 0x00 (0000ms, 1046ms total)
T0918 001:091 JLINK_WriteReg(R12, 0x00000000)  returns 0x00 (0000ms, 1046ms total)
T0918 001:091 JLINK_WriteReg(R13, 0x10000800)  returns 0x00 (0000ms, 1046ms total)
T0918 001:091 JLINK_WriteReg(R14, 0x10000001)  returns 0x00 (0000ms, 1046ms total)
T0918 001:091 JLINK_WriteReg(R15, 0x10000046)  returns 0x00 (0000ms, 1046ms total)
T0918 001:091 JLINK_WriteReg(XPSR, 0x01000000)  returns 0x00 (0000ms, 1046ms total)
T0918 001:091 JLINK_WriteReg(MSP, 0x10000800)  returns 0x00 (0000ms, 1046ms total)
T0918 001:091 JLINK_WriteReg(PSP, 0x10000800)  returns 0x00 (0000ms, 1046ms total)
T0918 001:091 JLINK_WriteReg(CFBP, 0x00000000)  returns 0x00 (0000ms, 1046ms total)
T0918 001:091 JLINK_SetBPEx(Addr = 0x10000000, Type = 0xFFFFFFF2)  returns 0x00000001 (0000ms, 1046ms total)
T0918 001:091 JLINK_Go() -- CPU_WriteMem(4 bytes @ 0xE0002000) -- CPU_WriteMem(4 bytes @ 0xE0002008) -- CPU_WriteMem(4 bytes @ 0xE000200C) -- CPU_WriteMem(4 bytes @ 0xE0002010) -- CPU_WriteMem(4 bytes @ 0xE0002014) -- CPU_WriteMem(4 bytes @ 0xE0002018) -- CPU_WriteMem(4 bytes @ 0xE000201C) (0012ms, 1046ms total)
T0918 001:103 JLINK_IsHalted()  returns TRUE (0004ms, 1058ms total)
T0918 001:107 JLINK_ReadReg(R15)  returns 0x10000000 (0000ms, 1058ms total)
T0918 001:107 JLINK_ClrBPEx(BPHandle = 0x00000001)  returns 0x00 (0000ms, 1058ms total)
T0918 001:107 JLINK_ReadReg(R0)  returns 0x00000000 (0000ms, 1058ms total)
T0918 001:108 JLINK_WriteReg(R0, 0x00000000)  returns 0x00 (0000ms, 1058ms total)
T0918 001:108 JLINK_WriteReg(R1, 0x00001000)  returns 0x00 (0000ms, 1058ms total)
T0918 001:108 JLINK_WriteReg(R2, 0x000000FF)  returns 0x00 (0000ms, 1058ms total)
T0918 001:108 JLINK_WriteReg(R3, 0x00000000)  returns 0x00 (0000ms, 1058ms total)
T0918 001:108 JLINK_WriteReg(R4, 0x00000000)  returns 0x00 (0000ms, 1058ms total)
T0918 001:108 JLINK_WriteReg(R5, 0x00000000)  returns 0x00 (0000ms, 1058ms total)
T0918 001:108 JLINK_WriteReg(R6, 0x00000000)  returns 0x00 (0000ms, 1058ms total)
T0918 001:108 JLINK_WriteReg(R7, 0x00000000)  returns 0x00 (0000ms, 1058ms total)
T0918 001:108 JLINK_WriteReg(R8, 0x00000000)  returns 0x00 (0000ms, 1058ms total)
T0918 001:108 JLINK_WriteReg(R9, 0x10000174)  returns 0x00 (0000ms, 1058ms total)
T0918 001:108 JLINK_WriteReg(R10, 0x00000000)  returns 0x00 (0000ms, 1058ms total)
T0918 001:108 JLINK_WriteReg(R11, 0x00000000)  returns 0x00 (0000ms, 1058ms total)
T0918 001:108 JLINK_WriteReg(R12, 0x00000000)  returns 0x00 (0000ms, 1058ms total)
T0918 001:108 JLINK_WriteReg(R13, 0x10000800)  returns 0x00 (0000ms, 1058ms total)
T0918 001:108 JLINK_WriteReg(R14, 0x10000001)  returns 0x00 (0000ms, 1058ms total)
T0918 001:108 JLINK_WriteReg(R15, 0x10000020)  returns 0x00 (0001ms, 1058ms total)
T0918 001:109 JLINK_WriteReg(XPSR, 0x01000000)  returns 0x00 (0000ms, 1059ms total)
T0918 001:109 JLINK_WriteReg(MSP, 0x10000800)  returns 0x00 (0000ms, 1059ms total)
T0918 001:109 JLINK_WriteReg(PSP, 0x10000800)  returns 0x00 (0000ms, 1059ms total)
T0918 001:109 JLINK_WriteReg(CFBP, 0x00000000)  returns 0x00 (0000ms, 1059ms total)
T0918 001:109 JLINK_SetBPEx(Addr = 0x10000000, Type = 0xFFFFFFF2)  returns 0x00000002 (0000ms, 1059ms total)
T0918 001:109 JLINK_Go() -- CPU_WriteMem(4 bytes @ 0xE0002008) -- CPU_WriteMem(4 bytes @ 0xE000200C) -- CPU_WriteMem(4 bytes @ 0xE0002010) -- CPU_WriteMem(4 bytes @ 0xE0002014) -- CPU_WriteMem(4 bytes @ 0xE0002018) -- CPU_WriteMem(4 bytes @ 0xE000201C) (0009ms, 1059ms total)
T0918 001:118 JLINK_IsHalted()  returns TRUE (0004ms, 1068ms total)
T0918 001:122 JLINK_ReadReg(R15)  returns 0x10000000 (0001ms, 1068ms total)
T0918 001:123 JLINK_ClrBPEx(BPHandle = 0x00000002)  returns 0x00 (0000ms, 1069ms total)
T0918 001:123 JLINK_ReadReg(R0)  returns 0x00000001 (0000ms, 1069ms total)
T0918 001:123 JLINK_WriteReg(R0, 0x00000000)  returns 0x00 (0000ms, 1069ms total)
T0918 001:123 JLINK_WriteReg(R1, 0x00001000)  returns 0x00 (0000ms, 1069ms total)
T0918 001:123 JLINK_WriteReg(R2, 0x000000FF)  returns 0x00 (0000ms, 1069ms total)
T0918 001:123 JLINK_WriteReg(R3, 0x00000000)  returns 0x00 (0000ms, 1069ms total)
T0918 001:123 JLINK_WriteReg(R4, 0x00000000)  returns 0x00 (0000ms, 1069ms total)
T0918 001:123 JLINK_WriteReg(R5, 0x00000000)  returns 0x00 (0000ms, 1069ms total)
T0918 001:123 JLINK_WriteReg(R6, 0x00000000)  returns 0x00 (0000ms, 1069ms total)
T0918 001:123 JLINK_WriteReg(R7, 0x00000000)  returns 0x00 (0000ms, 1069ms total)
T0918 001:123 JLINK_WriteReg(R8, 0x00000000)  returns 0x00 (0000ms, 1069ms total)
T0918 001:123 JLINK_WriteReg(R9, 0x10000174)  returns 0x00 (0000ms, 1069ms total)
T0918 001:123 JLINK_WriteReg(R10, 0x00000000)  returns 0x00 (0000ms, 1069ms total)
T0918 001:123 JLINK_WriteReg(R11, 0x00000000)  returns 0x00 (0000ms, 1069ms total)
T0918 001:123 JLINK_WriteReg(R12, 0x00000000)  returns 0x00 (0000ms, 1069ms total)
T0918 001:123 JLINK_WriteReg(R13, 0x10000800)  returns 0x00 (0000ms, 1069ms total)
T0918 001:123 JLINK_WriteReg(R14, 0x10000001)  returns 0x00 (0000ms, 1069ms total)
T0918 001:123 JLINK_WriteReg(R15, 0x100000AE)  returns 0x00 (0000ms, 1069ms total)
T0918 001:123 JLINK_WriteReg(XPSR, 0x01000000)  returns 0x00 (0000ms, 1069ms total)
T0918 001:123 JLINK_WriteReg(MSP, 0x10000800)  returns 0x00 (0000ms, 1069ms total)
T0918 001:123 JLINK_WriteReg(PSP, 0x10000800)  returns 0x00 (0000ms, 1069ms total)
T0918 001:123 JLINK_WriteReg(CFBP, 0x00000000)  returns 0x00 (0000ms, 1069ms total)
T0918 001:123 JLINK_SetBPEx(Addr = 0x10000000, Type = 0xFFFFFFF2)  returns 0x00000003 (0000ms, 1069ms total)
T0918 001:123 JLINK_Go() -- CPU_WriteMem(4 bytes @ 0xE0002008) -- CPU_WriteMem(4 bytes @ 0xE000200C) -- CPU_WriteMem(4 bytes @ 0xE0002010) -- CPU_WriteMem(4 bytes @ 0xE0002014) -- CPU_WriteMem(4 bytes @ 0xE0002018) -- CPU_WriteMem(4 bytes @ 0xE000201C) (0009ms, 1069ms total)
T0918 001:132 JLINK_IsHalted()  returns FALSE (0001ms, 1078ms total)
T0918 001:183 JLINK_IsHalted()  returns FALSE (0001ms, 1078ms total)
T0918 001:235 JLINK_IsHalted()  returns TRUE (0004ms, 1078ms total)
T0918 001:239 JLINK_ReadReg(R15)  returns 0x10000000 (0001ms, 1078ms total)
T0918 001:240 JLINK_ClrBPEx(BPHandle = 0x00000003)  returns 0x00 (0000ms, 1079ms total)
T0918 001:240 JLINK_ReadReg(R0)  returns 0x00000000 (0000ms, 1079ms total)
T0918 001:241 JLINK_WriteReg(R0, 0x00001000)  returns 0x00 (0000ms, 1079ms total)
T0918 001:241 JLINK_WriteReg(R1, 0x00001000)  returns 0x00 (0000ms, 1079ms total)
T0918 001:241 JLINK_WriteReg(R2, 0x000000FF)  returns 0x00 (0000ms, 1079ms total)
T0918 001:241 JLINK_WriteReg(R3, 0x00000000)  returns 0x00 (0000ms, 1079ms total)
T0918 001:241 JLINK_WriteReg(R4, 0x00000000)  returns 0x00 (0000ms, 1079ms total)
T0918 001:241 JLINK_WriteReg(R5, 0x00000000)  returns 0x00 (0000ms, 1079ms total)
T0918 001:241 JLINK_WriteReg(R6, 0x00000000)  returns 0x00 (0000ms, 1079ms total)
T0918 001:241 JLINK_WriteReg(R7, 0x00000000)  returns 0x00 (0000ms, 1079ms total)
T0918 001:241 JLINK_WriteReg(R8, 0x00000000)  returns 0x00 (0000ms, 1079ms total)
T0918 001:241 JLINK_WriteReg(R9, 0x10000174)  returns 0x00 (0000ms, 1079ms total)
T0918 001:241 JLINK_WriteReg(R10, 0x00000000)  returns 0x00 (0000ms, 1079ms total)
T0918 001:241 JLINK_WriteReg(R11, 0x00000000)  returns 0x00 (0000ms, 1079ms total)
T0918 001:241 JLINK_WriteReg(R12, 0x00000000)  returns 0x00 (0000ms, 1079ms total)
T0918 001:241 JLINK_WriteReg(R13, 0x10000800)  returns 0x00 (0000ms, 1079ms total)
T0918 001:241 JLINK_WriteReg(R14, 0x10000001)  returns 0x00 (0000ms, 1079ms total)
T0918 001:241 JLINK_WriteReg(R15, 0x10000020)  returns 0x00 (0000ms, 1079ms total)
T0918 001:241 JLINK_WriteReg(XPSR, 0x01000000)  returns 0x00 (0000ms, 1079ms total)
T0918 001:241 JLINK_WriteReg(MSP, 0x10000800)  returns 0x00 (0000ms, 1079ms total)
T0918 001:241 JLINK_WriteReg(PSP, 0x10000800)  returns 0x00 (0000ms, 1079ms total)
T0918 001:241 JLINK_WriteReg(CFBP, 0x00000000)  returns 0x00 (0000ms, 1079ms total)
T0918 001:241 JLINK_SetBPEx(Addr = 0x10000000, Type = 0xFFFFFFF2)  returns 0x00000004 (0000ms, 1079ms total)
T0918 001:241 JLINK_Go() -- CPU_WriteMem(4 bytes @ 0xE0002008) -- CPU_WriteMem(4 bytes @ 0xE000200C) -- CPU_WriteMem(4 bytes @ 0xE0002010) -- CPU_WriteMem(4 bytes @ 0xE0002014) -- CPU_WriteMem(4 bytes @ 0xE0002018) -- CPU_WriteMem(4 bytes @ 0xE000201C) (0010ms, 1079ms total)
T0918 001:251 JLINK_IsHalted()  returns TRUE (0005ms, 1089ms total)
T0918 001:256 JLINK_ReadReg(R15)  returns 0x10000000 (0000ms, 1089ms total)
T0918 001:256 JLINK_ClrBPEx(BPHandle = 0x00000004)  returns 0x00 (0000ms, 1089ms total)
T0918 001:256 JLINK_ReadReg(R0)  returns 0x00000001 (0000ms, 1089ms total)
T0918 001:256 JLINK_WriteReg(R0, 0x00001000)  returns 0x00 (0000ms, 1089ms total)
T0918 001:256 JLINK_WriteReg(R1, 0x00001000)  returns 0x00 (0000ms, 1089ms total)
T0918 001:256 JLINK_WriteReg(R2, 0x000000FF)  returns 0x00 (0000ms, 1089ms total)
T0918 001:256 JLINK_WriteReg(R3, 0x00000000)  returns 0x00 (0000ms, 1089ms total)
T0918 001:256 JLINK_WriteReg(R4, 0x00000000)  returns 0x00 (0000ms, 1089ms total)
T0918 001:256 JLINK_WriteReg(R5, 0x00000000)  returns 0x00 (0000ms, 1089ms total)
T0918 001:256 JLINK_WriteReg(R6, 0x00000000)  returns 0x00 (0000ms, 1089ms total)
T0918 001:256 JLINK_WriteReg(R7, 0x00000000)  returns 0x00 (0000ms, 1089ms total)
T0918 001:256 JLINK_WriteReg(R8, 0x00000000)  returns 0x00 (0000ms, 1089ms total)
T0918 001:256 JLINK_WriteReg(R9, 0x10000174)  returns 0x00 (0000ms, 1089ms total)
T0918 001:256 JLINK_WriteReg(R10, 0x00000000)  returns 0x00 (0000ms, 1089ms total)
T0918 001:256 JLINK_WriteReg(R11, 0x00000000)  returns 0x00 (0000ms, 1089ms total)
T0918 001:256 JLINK_WriteReg(R12, 0x00000000)  returns 0x00 (0000ms, 1089ms total)
T0918 001:256 JLINK_WriteReg(R13, 0x10000800)  returns 0x00 (0000ms, 1089ms total)
T0918 001:256 JLINK_WriteReg(R14, 0x10000001)  returns 0x00 (0000ms, 1089ms total)
T0918 001:256 JLINK_WriteReg(R15, 0x100000AE)  returns 0x00 (0000ms, 1089ms total)
T0918 001:257 JLINK_WriteReg(XPSR, 0x01000000)  returns 0x00 (0000ms, 1090ms total)
T0918 001:257 JLINK_WriteReg(MSP, 0x10000800)  returns 0x00 (0000ms, 1090ms total)
T0918 001:257 JLINK_WriteReg(PSP, 0x10000800)  returns 0x00 (0000ms, 1090ms total)
T0918 001:257 JLINK_WriteReg(CFBP, 0x00000000)  returns 0x00 (0000ms, 1090ms total)
T0918 001:257 JLINK_SetBPEx(Addr = 0x10000000, Type = 0xFFFFFFF2)  returns 0x00000005 (0000ms, 1090ms total)
T0918 001:257 JLINK_Go() -- CPU_WriteMem(4 bytes @ 0xE0002008) -- CPU_WriteMem(4 bytes @ 0xE000200C) -- CPU_WriteMem(4 bytes @ 0xE0002010) -- CPU_WriteMem(4 bytes @ 0xE0002014) -- CPU_WriteMem(4 bytes @ 0xE0002018) -- CPU_WriteMem(4 bytes @ 0xE000201C) (0009ms, 1090ms total)
T0918 001:266 JLINK_IsHalted()  returns FALSE (0001ms, 1099ms total)
T0918 001:318 JLINK_IsHalted()  returns FALSE (0001ms, 1099ms total)
T0918 001:370 JLINK_IsHalted()  returns TRUE (0004ms, 1099ms total)
T0918 001:375 JLINK_ReadReg(R15)  returns 0x10000000 (0000ms, 1099ms total)
T0918 001:375 JLINK_ClrBPEx(BPHandle = 0x00000005)  returns 0x00 (0000ms, 1099ms total)
T0918 001:375 JLINK_ReadReg(R0)  returns 0x00000000 (0000ms, 1099ms total)
T0918 001:376 JLINK_WriteReg(R0, 0x00002000)  returns 0x00 (0000ms, 1099ms total)
T0918 001:376 JLINK_WriteReg(R1, 0x00001000)  returns 0x00 (0000ms, 1099ms total)
T0918 001:376 JLINK_WriteReg(R2, 0x000000FF)  returns 0x00 (0000ms, 1099ms total)
T0918 001:376 JLINK_WriteReg(R3, 0x00000000)  returns 0x00 (0000ms, 1099ms total)
T0918 001:376 JLINK_WriteReg(R4, 0x00000000)  returns 0x00 (0000ms, 1099ms total)
T0918 001:376 JLINK_WriteReg(R5, 0x00000000)  returns 0x00 (0000ms, 1099ms total)
T0918 001:376 JLINK_WriteReg(R6, 0x00000000)  returns 0x00 (0000ms, 1099ms total)
T0918 001:376 JLINK_WriteReg(R7, 0x00000000)  returns 0x00 (0000ms, 1099ms total)
T0918 001:376 JLINK_WriteReg(R8, 0x00000000)  returns 0x00 (0000ms, 1099ms total)
T0918 001:376 JLINK_WriteReg(R9, 0x10000174)  returns 0x00 (0000ms, 1099ms total)
T0918 001:376 JLINK_WriteReg(R10, 0x00000000)  returns 0x00 (0000ms, 1099ms total)
T0918 001:376 JLINK_WriteReg(R11, 0x00000000)  returns 0x00 (0000ms, 1099ms total)
T0918 001:376 JLINK_WriteReg(R12, 0x00000000)  returns 0x00 (0000ms, 1099ms total)
T0918 001:376 JLINK_WriteReg(R13, 0x10000800)  returns 0x00 (0000ms, 1099ms total)
T0918 001:376 JLINK_WriteReg(R14, 0x10000001)  returns 0x00 (0000ms, 1099ms total)
T0918 001:376 JLINK_WriteReg(R15, 0x10000020)  returns 0x00 (0000ms, 1099ms total)
T0918 001:376 JLINK_WriteReg(XPSR, 0x01000000)  returns 0x00 (0000ms, 1099ms total)
T0918 001:376 JLINK_WriteReg(MSP, 0x10000800)  returns 0x00 (0000ms, 1099ms total)
T0918 001:376 JLINK_WriteReg(PSP, 0x10000800)  returns 0x00 (0000ms, 1099ms total)
T0918 001:376 JLINK_WriteReg(CFBP, 0x00000000)  returns 0x00 (0000ms, 1099ms total)
T0918 001:376 JLINK_SetBPEx(Addr = 0x10000000, Type = 0xFFFFFFF2)  returns 0x00000006 (0000ms, 1099ms total)
T0918 001:376 JLINK_Go() -- CPU_WriteMem(4 bytes @ 0xE0002008) -- CPU_WriteMem(4 bytes @ 0xE000200C) -- CPU_WriteMem(4 bytes @ 0xE0002010) -- CPU_WriteMem(4 bytes @ 0xE0002014) -- CPU_WriteMem(4 bytes @ 0xE0002018) -- CPU_WriteMem(4 bytes @ 0xE000201C) (0010ms, 1099ms total)
T0918 001:386 JLINK_IsHalted()  returns TRUE (0005ms, 1109ms total)
T0918 001:391 JLINK_ReadReg(R15)  returns 0x10000000 (0001ms, 1109ms total)
T0918 001:392 JLINK_ClrBPEx(BPHandle = 0x00000006)  returns 0x00 (0000ms, 1110ms total)
T0918 001:392 JLINK_ReadReg(R0)  returns 0x00000001 (0000ms, 1110ms total)
T0918 001:392 JLINK_WriteReg(R0, 0x00002000)  returns 0x00 (0000ms, 1110ms total)
T0918 001:392 JLINK_WriteReg(R1, 0x00001000)  returns 0x00 (0000ms, 1110ms total)
T0918 001:392 JLINK_WriteReg(R2, 0x000000FF)  returns 0x00 (0000ms, 1110ms total)
T0918 001:392 JLINK_WriteReg(R3, 0x00000000)  returns 0x00 (0000ms, 1110ms total)
T0918 001:392 JLINK_WriteReg(R4, 0x00000000)  returns 0x00 (0000ms, 1110ms total)
T0918 001:392 JLINK_WriteReg(R5, 0x00000000)  returns 0x00 (0000ms, 1110ms total)
T0918 001:392 JLINK_WriteReg(R6, 0x00000000)  returns 0x00 (0000ms, 1110ms total)
T0918 001:392 JLINK_WriteReg(R7, 0x00000000)  returns 0x00 (0000ms, 1110ms total)
T0918 001:392 JLINK_WriteReg(R8, 0x00000000)  returns 0x00 (0000ms, 1110ms total)
T0918 001:392 JLINK_WriteReg(R9, 0x10000174)  returns 0x00 (0000ms, 1110ms total)
T0918 001:392 JLINK_WriteReg(R10, 0x00000000)  returns 0x00 (0000ms, 1110ms total)
T0918 001:392 JLINK_WriteReg(R11, 0x00000000)  returns 0x00 (0000ms, 1110ms total)
T0918 001:392 JLINK_WriteReg(R12, 0x00000000)  returns 0x00 (0000ms, 1110ms total)
T0918 001:392 JLINK_WriteReg(R13, 0x10000800)  returns 0x00 (0000ms, 1110ms total)
T0918 001:392 JLINK_WriteReg(R14, 0x10000001)  returns 0x00 (0000ms, 1110ms total)
T0918 001:392 JLINK_WriteReg(R15, 0x100000AE)  returns 0x00 (0000ms, 1110ms total)
T0918 001:392 JLINK_WriteReg(XPSR, 0x01000000)  returns 0x00 (0000ms, 1110ms total)
T0918 001:392 JLINK_WriteReg(MSP, 0x10000800)  returns 0x00 (0000ms, 1110ms total)
T0918 001:392 JLINK_WriteReg(PSP, 0x10000800)  returns 0x00 (0000ms, 1110ms total)
T0918 001:392 JLINK_WriteReg(CFBP, 0x00000000)  returns 0x00 (0000ms, 1110ms total)
T0918 001:392 JLINK_SetBPEx(Addr = 0x10000000, Type = 0xFFFFFFF2)  returns 0x00000007 (0000ms, 1110ms total)
T0918 001:392 JLINK_Go() -- CPU_WriteMem(4 bytes @ 0xE0002008) -- CPU_WriteMem(4 bytes @ 0xE000200C) -- CPU_WriteMem(4 bytes @ 0xE0002010) -- CPU_WriteMem(4 bytes @ 0xE0002014) -- CPU_WriteMem(4 bytes @ 0xE0002018) -- CPU_WriteMem(4 bytes @ 0xE000201C) (0010ms, 1110ms total)
T0918 001:402 JLINK_IsHalted()  returns FALSE (0001ms, 1120ms total)
T0918 001:454 JLINK_IsHalted()  returns FALSE (0001ms, 1120ms total)
T0918 001:506 JLINK_IsHalted()  returns TRUE (0005ms, 1120ms total)
T0918 001:511 JLINK_ReadReg(R15)  returns 0x10000000 (0000ms, 1120ms total)
T0918 001:511 JLINK_ClrBPEx(BPHandle = 0x00000007)  returns 0x00 (0000ms, 1120ms total)
T0918 001:511 JLINK_ReadReg(R0)  returns 0x00000000 (0000ms, 1120ms total)
T0918 001:512 JLINK_WriteReg(R0, 0x00003000)  returns 0x00 (0000ms, 1120ms total)
T0918 001:512 JLINK_WriteReg(R1, 0x00001000)  returns 0x00 (0000ms, 1120ms total)
T0918 001:512 JLINK_WriteReg(R2, 0x000000FF)  returns 0x00 (0000ms, 1120ms total)
T0918 001:512 JLINK_WriteReg(R3, 0x00000000)  returns 0x00 (0000ms, 1120ms total)
T0918 001:512 JLINK_WriteReg(R4, 0x00000000)  returns 0x00 (0000ms, 1120ms total)
T0918 001:512 JLINK_WriteReg(R5, 0x00000000)  returns 0x00 (0000ms, 1120ms total)
T0918 001:512 JLINK_WriteReg(R6, 0x00000000)  returns 0x00 (0000ms, 1120ms total)
T0918 001:512 JLINK_WriteReg(R7, 0x00000000)  returns 0x00 (0000ms, 1120ms total)
T0918 001:512 JLINK_WriteReg(R8, 0x00000000)  returns 0x00 (0000ms, 1120ms total)
T0918 001:512 JLINK_WriteReg(R9, 0x10000174)  returns 0x00 (0000ms, 1120ms total)
T0918 001:512 JLINK_WriteReg(R10, 0x00000000)  returns 0x00 (0000ms, 1120ms total)
T0918 001:512 JLINK_WriteReg(R11, 0x00000000)  returns 0x00 (0000ms, 1120ms total)
T0918 001:512 JLINK_WriteReg(R12, 0x00000000)  returns 0x00 (0000ms, 1120ms total)
T0918 001:512 JLINK_WriteReg(R13, 0x10000800)  returns 0x00 (0000ms, 1120ms total)
T0918 001:512 JLINK_WriteReg(R14, 0x10000001)  returns 0x00 (0000ms, 1120ms total)
T0918 001:512 JLINK_WriteReg(R15, 0x10000020)  returns 0x00 (0000ms, 1120ms total)
T0918 001:512 JLINK_WriteReg(XPSR, 0x01000000)  returns 0x00 (0000ms, 1120ms total)
T0918 001:512 JLINK_WriteReg(MSP, 0x10000800)  returns 0x00 (0000ms, 1120ms total)
T0918 001:512 JLINK_WriteReg(PSP, 0x10000800)  returns 0x00 (0000ms, 1120ms total)
T0918 001:512 JLINK_WriteReg(CFBP, 0x00000000)  returns 0x00 (0000ms, 1120ms total)
T0918 001:512 JLINK_SetBPEx(Addr = 0x10000000, Type = 0xFFFFFFF2)  returns 0x00000008 (0000ms, 1120ms total)
T0918 001:512 JLINK_Go() -- CPU_WriteMem(4 bytes @ 0xE0002008) -- CPU_WriteMem(4 bytes @ 0xE000200C) -- CPU_WriteMem(4 bytes @ 0xE0002010) -- CPU_WriteMem(4 bytes @ 0xE0002014) -- CPU_WriteMem(4 bytes @ 0xE0002018) -- CPU_WriteMem(4 bytes @ 0xE000201C) (0010ms, 1120ms total)
T0918 001:522 JLINK_IsHalted()  returns TRUE (0005ms, 1130ms total)
T0918 001:527 JLINK_ReadReg(R15)  returns 0x10000000 (0000ms, 1130ms total)
T0918 001:527 JLINK_ClrBPEx(BPHandle = 0x00000008)  returns 0x00 (0000ms, 1130ms total)
T0918 001:527 JLINK_ReadReg(R0)  returns 0x00000001 (0000ms, 1130ms total)
T0918 001:527 JLINK_WriteReg(R0, 0x00003000)  returns 0x00 (0000ms, 1130ms total)
T0918 001:527 JLINK_WriteReg(R1, 0x00001000)  returns 0x00 (0000ms, 1130ms total)
T0918 001:527 JLINK_WriteReg(R2, 0x000000FF)  returns 0x00 (0000ms, 1130ms total)
T0918 001:527 JLINK_WriteReg(R3, 0x00000000)  returns 0x00 (0000ms, 1130ms total)
T0918 001:527 JLINK_WriteReg(R4, 0x00000000)  returns 0x00 (0000ms, 1130ms total)
T0918 001:527 JLINK_WriteReg(R5, 0x00000000)  returns 0x00 (0000ms, 1130ms total)
T0918 001:527 JLINK_WriteReg(R6, 0x00000000)  returns 0x00 (0000ms, 1130ms total)
T0918 001:527 JLINK_WriteReg(R7, 0x00000000)  returns 0x00 (0000ms, 1130ms total)
T0918 001:527 JLINK_WriteReg(R8, 0x00000000)  returns 0x00 (0000ms, 1130ms total)
T0918 001:527 JLINK_WriteReg(R9, 0x10000174)  returns 0x00 (0000ms, 1130ms total)
T0918 001:527 JLINK_WriteReg(R10, 0x00000000)  returns 0x00 (0000ms, 1130ms total)
T0918 001:527 JLINK_WriteReg(R11, 0x00000000)  returns 0x00 (0000ms, 1130ms total)
T0918 001:527 JLINK_WriteReg(R12, 0x00000000)  returns 0x00 (0000ms, 1130ms total)
T0918 001:527 JLINK_WriteReg(R13, 0x10000800)  returns 0x00 (0000ms, 1130ms total)
T0918 001:527 JLINK_WriteReg(R14, 0x10000001)  returns 0x00 (0000ms, 1130ms total)
T0918 001:527 JLINK_WriteReg(R15, 0x100000AE)  returns 0x00 (0000ms, 1130ms total)
T0918 001:527 JLINK_WriteReg(XPSR, 0x01000000)  returns 0x00 (0000ms, 1130ms total)
T0918 001:527 JLINK_WriteReg(MSP, 0x10000800)  returns 0x00 (0000ms, 1130ms total)
T0918 001:527 JLINK_WriteReg(PSP, 0x10000800)  returns 0x00 (0000ms, 1130ms total)
T0918 001:527 JLINK_WriteReg(CFBP, 0x00000000)  returns 0x00 (0000ms, 1130ms total)
T0918 001:527 JLINK_SetBPEx(Addr = 0x10000000, Type = 0xFFFFFFF2)  returns 0x00000009 (0000ms, 1130ms total)
T0918 001:527 JLINK_Go() -- CPU_WriteMem(4 bytes @ 0xE0002008) -- CPU_WriteMem(4 bytes @ 0xE000200C) -- CPU_WriteMem(4 bytes @ 0xE0002010) -- CPU_WriteMem(4 bytes @ 0xE0002014) -- CPU_WriteMem(4 bytes @ 0xE0002018) -- CPU_WriteMem(4 bytes @ 0xE000201C) (0009ms, 1130ms total)
T0918 001:536 JLINK_IsHalted()  returns FALSE (0001ms, 1139ms total)
T0918 001:589 JLINK_IsHalted()  returns FALSE (0001ms, 1139ms total)
T0918 001:641 JLINK_IsHalted()  returns TRUE (0004ms, 1139ms total)
T0918 001:646 JLINK_ReadReg(R15)  returns 0x10000000 (0000ms, 1139ms total)
T0918 001:646 JLINK_ClrBPEx(BPHandle = 0x00000009)  returns 0x00 (0000ms, 1139ms total)
T0918 001:646 JLINK_ReadReg(R0)  returns 0x00000000 (0000ms, 1139ms total)
T0918 001:647 JLINK_WriteReg(R0, 0x00004000)  returns 0x00 (0000ms, 1139ms total)
T0918 001:647 JLINK_WriteReg(R1, 0x00001000)  returns 0x00 (0000ms, 1139ms total)
T0918 001:647 JLINK_WriteReg(R2, 0x000000FF)  returns 0x00 (0000ms, 1139ms total)
T0918 001:647 JLINK_WriteReg(R3, 0x00000000)  returns 0x00 (0000ms, 1139ms total)
T0918 001:647 JLINK_WriteReg(R4, 0x00000000)  returns 0x00 (0000ms, 1139ms total)
T0918 001:647 JLINK_WriteReg(R5, 0x00000000)  returns 0x00 (0000ms, 1139ms total)
T0918 001:647 JLINK_WriteReg(R6, 0x00000000)  returns 0x00 (0000ms, 1139ms total)
T0918 001:647 JLINK_WriteReg(R7, 0x00000000)  returns 0x00 (0000ms, 1139ms total)
T0918 001:647 JLINK_WriteReg(R8, 0x00000000)  returns 0x00 (0000ms, 1139ms total)
T0918 001:647 JLINK_WriteReg(R9, 0x10000174)  returns 0x00 (0000ms, 1139ms total)
T0918 001:647 JLINK_WriteReg(R10, 0x00000000)  returns 0x00 (0000ms, 1139ms total)
T0918 001:647 JLINK_WriteReg(R11, 0x00000000)  returns 0x00 (0000ms, 1139ms total)
T0918 001:647 JLINK_WriteReg(R12, 0x00000000)  returns 0x00 (0000ms, 1139ms total)
T0918 001:647 JLINK_WriteReg(R13, 0x10000800)  returns 0x00 (0000ms, 1139ms total)
T0918 001:647 JLINK_WriteReg(R14, 0x10000001)  returns 0x00 (0000ms, 1139ms total)
T0918 001:647 JLINK_WriteReg(R15, 0x10000020)  returns 0x00 (0000ms, 1139ms total)
T0918 001:647 JLINK_WriteReg(XPSR, 0x01000000)  returns 0x00 (0000ms, 1139ms total)
T0918 001:647 JLINK_WriteReg(MSP, 0x10000800)  returns 0x00 (0000ms, 1139ms total)
T0918 001:647 JLINK_WriteReg(PSP, 0x10000800)  returns 0x00 (0000ms, 1139ms total)
T0918 001:647 JLINK_WriteReg(CFBP, 0x00000000)  returns 0x00 (0000ms, 1139ms total)
T0918 001:647 JLINK_SetBPEx(Addr = 0x10000000, Type = 0xFFFFFFF2)  returns 0x0000000A (0000ms, 1139ms total)
T0918 001:647 JLINK_Go() -- CPU_WriteMem(4 bytes @ 0xE0002008) -- CPU_WriteMem(4 bytes @ 0xE000200C) -- CPU_WriteMem(4 bytes @ 0xE0002010) -- CPU_WriteMem(4 bytes @ 0xE0002014) -- CPU_WriteMem(4 bytes @ 0xE0002018) -- CPU_WriteMem(4 bytes @ 0xE000201C) (0010ms, 1139ms total)
T0918 001:657 JLINK_IsHalted()  returns TRUE (0005ms, 1149ms total)
T0918 001:662 JLINK_ReadReg(R15)  returns 0x10000000 (0001ms, 1149ms total)
T0918 001:663 JLINK_ClrBPEx(BPHandle = 0x0000000A)  returns 0x00 (0000ms, 1150ms total)
T0918 001:663 JLINK_ReadReg(R0)  returns 0x00000001 (0000ms, 1150ms total)
T0918 001:663 JLINK_WriteReg(R0, 0x00004000)  returns 0x00 (0000ms, 1150ms total)
T0918 001:663 JLINK_WriteReg(R1, 0x00001000)  returns 0x00 (0000ms, 1150ms total)
T0918 001:663 JLINK_WriteReg(R2, 0x000000FF)  returns 0x00 (0000ms, 1150ms total)
T0918 001:663 JLINK_WriteReg(R3, 0x00000000)  returns 0x00 (0000ms, 1150ms total)
T0918 001:663 JLINK_WriteReg(R4, 0x00000000)  returns 0x00 (0000ms, 1150ms total)
T0918 001:663 JLINK_WriteReg(R5, 0x00000000)  returns 0x00 (0000ms, 1150ms total)
T0918 001:663 JLINK_WriteReg(R6, 0x00000000)  returns 0x00 (0000ms, 1150ms total)
T0918 001:663 JLINK_WriteReg(R7, 0x00000000)  returns 0x00 (0000ms, 1150ms total)
T0918 001:663 JLINK_WriteReg(R8, 0x00000000)  returns 0x00 (0000ms, 1150ms total)
T0918 001:663 JLINK_WriteReg(R9, 0x10000174)  returns 0x00 (0000ms, 1150ms total)
T0918 001:663 JLINK_WriteReg(R10, 0x00000000)  returns 0x00 (0000ms, 1150ms total)
T0918 001:663 JLINK_WriteReg(R11, 0x00000000)  returns 0x00 (0000ms, 1150ms total)
T0918 001:663 JLINK_WriteReg(R12, 0x00000000)  returns 0x00 (0000ms, 1150ms total)
T0918 001:663 JLINK_WriteReg(R13, 0x10000800)  returns 0x00 (0000ms, 1150ms total)
T0918 001:663 JLINK_WriteReg(R14, 0x10000001)  returns 0x00 (0000ms, 1150ms total)
T0918 001:663 JLINK_WriteReg(R15, 0x100000AE)  returns 0x00 (0000ms, 1150ms total)
T0918 001:663 JLINK_WriteReg(XPSR, 0x01000000)  returns 0x00 (0000ms, 1150ms total)
T0918 001:663 JLINK_WriteReg(MSP, 0x10000800)  returns 0x00 (0000ms, 1150ms total)
T0918 001:663 JLINK_WriteReg(PSP, 0x10000800)  returns 0x00 (0000ms, 1150ms total)
T0918 001:663 JLINK_WriteReg(CFBP, 0x00000000)  returns 0x00 (0000ms, 1150ms total)
T0918 001:663 JLINK_SetBPEx(Addr = 0x10000000, Type = 0xFFFFFFF2)  returns 0x0000000B (0000ms, 1150ms total)
T0918 001:663 JLINK_Go() -- CPU_WriteMem(4 bytes @ 0xE0002008) -- CPU_WriteMem(4 bytes @ 0xE000200C) -- CPU_WriteMem(4 bytes @ 0xE0002010) -- CPU_WriteMem(4 bytes @ 0xE0002014) -- CPU_WriteMem(4 bytes @ 0xE0002018) -- CPU_WriteMem(4 bytes @ 0xE000201C) (0009ms, 1150ms total)
T0918 001:672 JLINK_IsHalted()  returns FALSE (0001ms, 1159ms total)
T0918 001:724 JLINK_IsHalted()  returns FALSE (0001ms, 1159ms total)
T0918 001:776 JLINK_IsHalted()  returns TRUE (0005ms, 1159ms total)
T0918 001:781 JLINK_ReadReg(R15)  returns 0x10000000 (0000ms, 1159ms total)
T0918 001:781 JLINK_ClrBPEx(BPHandle = 0x0000000B)  returns 0x00 (0000ms, 1159ms total)
T0918 001:781 JLINK_ReadReg(R0)  returns 0x00000000 (0000ms, 1159ms total)
T0918 001:782 JLINK_WriteReg(R0, 0x00005000)  returns 0x00 (0000ms, 1159ms total)
T0918 001:782 JLINK_WriteReg(R1, 0x00001000)  returns 0x00 (0000ms, 1159ms total)
T0918 001:782 JLINK_WriteReg(R2, 0x000000FF)  returns 0x00 (0000ms, 1159ms total)
T0918 001:782 JLINK_WriteReg(R3, 0x00000000)  returns 0x00 (0000ms, 1159ms total)
T0918 001:782 JLINK_WriteReg(R4, 0x00000000)  returns 0x00 (0000ms, 1159ms total)
T0918 001:782 JLINK_WriteReg(R5, 0x00000000)  returns 0x00 (0000ms, 1159ms total)
T0918 001:782 JLINK_WriteReg(R6, 0x00000000)  returns 0x00 (0000ms, 1159ms total)
T0918 001:782 JLINK_WriteReg(R7, 0x00000000)  returns 0x00 (0000ms, 1159ms total)
T0918 001:782 JLINK_WriteReg(R8, 0x00000000)  returns 0x00 (0000ms, 1159ms total)
T0918 001:782 JLINK_WriteReg(R9, 0x10000174)  returns 0x00 (0000ms, 1159ms total)
T0918 001:782 JLINK_WriteReg(R10, 0x00000000)  returns 0x00 (0000ms, 1159ms total)
T0918 001:782 JLINK_WriteReg(R11, 0x00000000)  returns 0x00 (0000ms, 1159ms total)
T0918 001:782 JLINK_WriteReg(R12, 0x00000000)  returns 0x00 (0000ms, 1159ms total)
T0918 001:782 JLINK_WriteReg(R13, 0x10000800)  returns 0x00 (0000ms, 1159ms total)
T0918 001:782 JLINK_WriteReg(R14, 0x10000001)  returns 0x00 (0000ms, 1159ms total)
T0918 001:782 JLINK_WriteReg(R15, 0x10000020)  returns 0x00 (0000ms, 1159ms total)
T0918 001:782 JLINK_WriteReg(XPSR, 0x01000000)  returns 0x00 (0000ms, 1159ms total)
T0918 001:782 JLINK_WriteReg(MSP, 0x10000800)  returns 0x00 (0000ms, 1159ms total)
T0918 001:782 JLINK_WriteReg(PSP, 0x10000800)  returns 0x00 (0000ms, 1159ms total)
T0918 001:782 JLINK_WriteReg(CFBP, 0x00000000)  returns 0x00 (0000ms, 1159ms total)
T0918 001:782 JLINK_SetBPEx(Addr = 0x10000000, Type = 0xFFFFFFF2)  returns 0x0000000C (0000ms, 1159ms total)
T0918 001:782 JLINK_Go() -- CPU_WriteMem(4 bytes @ 0xE0002008) -- CPU_WriteMem(4 bytes @ 0xE000200C) -- CPU_WriteMem(4 bytes @ 0xE0002010) -- CPU_WriteMem(4 bytes @ 0xE0002014) -- CPU_WriteMem(4 bytes @ 0xE0002018) -- CPU_WriteMem(4 bytes @ 0xE000201C) (0010ms, 1159ms total)
T0918 001:792 JLINK_IsHalted()  returns TRUE (0005ms, 1169ms total)
T0918 001:797 JLINK_ReadReg(R15)  returns 0x10000000 (0000ms, 1169ms total)
T0918 001:797 JLINK_ClrBPEx(BPHandle = 0x0000000C)  returns 0x00 (0000ms, 1169ms total)
T0918 001:797 JLINK_ReadReg(R0)  returns 0x00000001 (0000ms, 1169ms total)
T0918 001:797 JLINK_WriteReg(R0, 0x00005000)  returns 0x00 (0000ms, 1169ms total)
T0918 001:797 JLINK_WriteReg(R1, 0x00001000)  returns 0x00 (0000ms, 1169ms total)
T0918 001:797 JLINK_WriteReg(R2, 0x000000FF)  returns 0x00 (0000ms, 1169ms total)
T0918 001:797 JLINK_WriteReg(R3, 0x00000000)  returns 0x00 (0000ms, 1169ms total)
T0918 001:797 JLINK_WriteReg(R4, 0x00000000)  returns 0x00 (0000ms, 1169ms total)
T0918 001:797 JLINK_WriteReg(R5, 0x00000000)  returns 0x00 (0000ms, 1169ms total)
T0918 001:797 JLINK_WriteReg(R6, 0x00000000)  returns 0x00 (0000ms, 1169ms total)
T0918 001:797 JLINK_WriteReg(R7, 0x00000000)  returns 0x00 (0000ms, 1169ms total)
T0918 001:797 JLINK_WriteReg(R8, 0x00000000)  returns 0x00 (0000ms, 1169ms total)
T0918 001:797 JLINK_WriteReg(R9, 0x10000174)  returns 0x00 (0000ms, 1169ms total)
T0918 001:797 JLINK_WriteReg(R10, 0x00000000)  returns 0x00 (0000ms, 1169ms total)
T0918 001:797 JLINK_WriteReg(R11, 0x00000000)  returns 0x00 (0000ms, 1169ms total)
T0918 001:797 JLINK_WriteReg(R12, 0x00000000)  returns 0x00 (0000ms, 1169ms total)
T0918 001:797 JLINK_WriteReg(R13, 0x10000800)  returns 0x00 (0000ms, 1169ms total)
T0918 001:797 JLINK_WriteReg(R14, 0x10000001)  returns 0x00 (0000ms, 1169ms total)
T0918 001:797 JLINK_WriteReg(R15, 0x100000AE)  returns 0x00 (0000ms, 1169ms total)
T0918 001:797 JLINK_WriteReg(XPSR, 0x01000000)  returns 0x00 (0000ms, 1169ms total)
T0918 001:797 JLINK_WriteReg(MSP, 0x10000800)  returns 0x00 (0000ms, 1169ms total)
T0918 001:797 JLINK_WriteReg(PSP, 0x10000800)  returns 0x00 (0000ms, 1169ms total)
T0918 001:797 JLINK_WriteReg(CFBP, 0x00000000)  returns 0x00 (0000ms, 1169ms total)
T0918 001:797 JLINK_SetBPEx(Addr = 0x10000000, Type = 0xFFFFFFF2)  returns 0x0000000D (0000ms, 1169ms total)
T0918 001:797 JLINK_Go() -- CPU_WriteMem(4 bytes @ 0xE0002008) -- CPU_WriteMem(4 bytes @ 0xE000200C) -- CPU_WriteMem(4 bytes @ 0xE0002010) -- CPU_WriteMem(4 bytes @ 0xE0002014) -- CPU_WriteMem(4 bytes @ 0xE0002018) -- CPU_WriteMem(4 bytes @ 0xE000201C) (0009ms, 1169ms total)
T0918 001:806 JLINK_IsHalted()  returns FALSE (0001ms, 1178ms total)
T0918 001:858 JLINK_IsHalted()  returns FALSE (0001ms, 1178ms total)
T0918 001:910 JLINK_IsHalted()  returns TRUE (0004ms, 1178ms total)
T0918 001:914 JLINK_ReadReg(R15)  returns 0x10000000 (0001ms, 1178ms total)
T0918 001:915 JLINK_ClrBPEx(BPHandle = 0x0000000D)  returns 0x00 (0000ms, 1179ms total)
T0918 001:915 JLINK_ReadReg(R0)  returns 0x00000000 (0000ms, 1179ms total)
T0918 001:916 JLINK_WriteReg(R0, 0x00006000)  returns 0x00 (0000ms, 1179ms total)
T0918 001:916 JLINK_WriteReg(R1, 0x00001000)  returns 0x00 (0000ms, 1179ms total)
T0918 001:916 JLINK_WriteReg(R2, 0x000000FF)  returns 0x00 (0000ms, 1179ms total)
T0918 001:916 JLINK_WriteReg(R3, 0x00000000)  returns 0x00 (0000ms, 1179ms total)
T0918 001:916 JLINK_WriteReg(R4, 0x00000000)  returns 0x00 (0000ms, 1179ms total)
T0918 001:916 JLINK_WriteReg(R5, 0x00000000)  returns 0x00 (0000ms, 1179ms total)
T0918 001:916 JLINK_WriteReg(R6, 0x00000000)  returns 0x00 (0000ms, 1179ms total)
T0918 001:916 JLINK_WriteReg(R7, 0x00000000)  returns 0x00 (0000ms, 1179ms total)
T0918 001:916 JLINK_WriteReg(R8, 0x00000000)  returns 0x00 (0000ms, 1179ms total)
T0918 001:916 JLINK_WriteReg(R9, 0x10000174)  returns 0x00 (0000ms, 1179ms total)
T0918 001:916 JLINK_WriteReg(R10, 0x00000000)  returns 0x00 (0000ms, 1179ms total)
T0918 001:916 JLINK_WriteReg(R11, 0x00000000)  returns 0x00 (0000ms, 1179ms total)
T0918 001:916 JLINK_WriteReg(R12, 0x00000000)  returns 0x00 (0000ms, 1179ms total)
T0918 001:916 JLINK_WriteReg(R13, 0x10000800)  returns 0x00 (0000ms, 1179ms total)
T0918 001:916 JLINK_WriteReg(R14, 0x10000001)  returns 0x00 (0000ms, 1179ms total)
T0918 001:916 JLINK_WriteReg(R15, 0x10000020)  returns 0x00 (0000ms, 1179ms total)
T0918 001:916 JLINK_WriteReg(XPSR, 0x01000000)  returns 0x00 (0000ms, 1179ms total)
T0918 001:916 JLINK_WriteReg(MSP, 0x10000800)  returns 0x00 (0000ms, 1179ms total)
T0918 001:916 JLINK_WriteReg(PSP, 0x10000800)  returns 0x00 (0000ms, 1179ms total)
T0918 001:916 JLINK_WriteReg(CFBP, 0x00000000)  returns 0x00 (0000ms, 1179ms total)
T0918 001:916 JLINK_SetBPEx(Addr = 0x10000000, Type = 0xFFFFFFF2)  returns 0x0000000E (0000ms, 1179ms total)
T0918 001:916 JLINK_Go() -- CPU_WriteMem(4 bytes @ 0xE0002008) -- CPU_WriteMem(4 bytes @ 0xE000200C) -- CPU_WriteMem(4 bytes @ 0xE0002010) -- CPU_WriteMem(4 bytes @ 0xE0002014) -- CPU_WriteMem(4 bytes @ 0xE0002018) -- CPU_WriteMem(4 bytes @ 0xE000201C) (0010ms, 1179ms total)
T0918 001:926 JLINK_IsHalted()  returns TRUE (0005ms, 1189ms total)
T0918 001:931 JLINK_ReadReg(R15)  returns 0x10000000 (0000ms, 1189ms total)
T0918 001:931 JLINK_ClrBPEx(BPHandle = 0x0000000E)  returns 0x00 (0000ms, 1189ms total)
T0918 001:931 JLINK_ReadReg(R0)  returns 0x00000001 (0000ms, 1189ms total)
T0918 001:931 JLINK_WriteReg(R0, 0x00006000)  returns 0x00 (0000ms, 1189ms total)
T0918 001:931 JLINK_WriteReg(R1, 0x00001000)  returns 0x00 (0000ms, 1189ms total)
T0918 001:931 JLINK_WriteReg(R2, 0x000000FF)  returns 0x00 (0000ms, 1189ms total)
T0918 001:931 JLINK_WriteReg(R3, 0x00000000)  returns 0x00 (0000ms, 1189ms total)
T0918 001:931 JLINK_WriteReg(R4, 0x00000000)  returns 0x00 (0000ms, 1189ms total)
T0918 001:931 JLINK_WriteReg(R5, 0x00000000)  returns 0x00 (0000ms, 1189ms total)
T0918 001:931 JLINK_WriteReg(R6, 0x00000000)  returns 0x00 (0000ms, 1189ms total)
T0918 001:931 JLINK_WriteReg(R7, 0x00000000)  returns 0x00 (0000ms, 1189ms total)
T0918 001:931 JLINK_WriteReg(R8, 0x00000000)  returns 0x00 (0000ms, 1189ms total)
T0918 001:931 JLINK_WriteReg(R9, 0x10000174)  returns 0x00 (0000ms, 1189ms total)
T0918 001:931 JLINK_WriteReg(R10, 0x00000000)  returns 0x00 (0000ms, 1189ms total)
T0918 001:931 JLINK_WriteReg(R11, 0x00000000)  returns 0x00 (0000ms, 1189ms total)
T0918 001:931 JLINK_WriteReg(R12, 0x00000000)  returns 0x00 (0000ms, 1189ms total)
T0918 001:931 JLINK_WriteReg(R13, 0x10000800)  returns 0x00 (0000ms, 1189ms total)
T0918 001:931 JLINK_WriteReg(R14, 0x10000001)  returns 0x00 (0000ms, 1189ms total)
T0918 001:931 JLINK_WriteReg(R15, 0x100000AE)  returns 0x00 (0000ms, 1189ms total)
T0918 001:931 JLINK_WriteReg(XPSR, 0x01000000)  returns 0x00 (0001ms, 1189ms total)
T0918 001:932 JLINK_WriteReg(MSP, 0x10000800)  returns 0x00 (0000ms, 1190ms total)
T0918 001:932 JLINK_WriteReg(PSP, 0x10000800)  returns 0x00 (0000ms, 1190ms total)
T0918 001:932 JLINK_WriteReg(CFBP, 0x00000000)  returns 0x00 (0000ms, 1190ms total)
T0918 001:932 JLINK_SetBPEx(Addr = 0x10000000, Type = 0xFFFFFFF2)  returns 0x0000000F (0000ms, 1190ms total)
T0918 001:932 JLINK_Go() -- CPU_WriteMem(4 bytes @ 0xE0002008) -- CPU_WriteMem(4 bytes @ 0xE000200C) -- CPU_WriteMem(4 bytes @ 0xE0002010) -- CPU_WriteMem(4 bytes @ 0xE0002014) -- CPU_WriteMem(4 bytes @ 0xE0002018) -- CPU_WriteMem(4 bytes @ 0xE000201C) (0009ms, 1190ms total)
T0918 001:941 JLINK_IsHalted()  returns FALSE (0001ms, 1199ms total)
T0918 001:993 JLINK_IsHalted()  returns FALSE (0001ms, 1199ms total)
T0918 002:045 JLINK_IsHalted()  returns TRUE (0005ms, 1199ms total)
T0918 002:050 JLINK_ReadReg(R15)  returns 0x10000000 (0000ms, 1199ms total)
T0918 002:050 JLINK_ClrBPEx(BPHandle = 0x0000000F)  returns 0x00 (0000ms, 1199ms total)
T0918 002:050 JLINK_ReadReg(R0)  returns 0x00000000 (0000ms, 1199ms total)
T0918 002:051 JLINK_WriteReg(R0, 0x00007000)  returns 0x00 (0000ms, 1199ms total)
T0918 002:051 JLINK_WriteReg(R1, 0x00001000)  returns 0x00 (0000ms, 1199ms total)
T0918 002:051 JLINK_WriteReg(R2, 0x000000FF)  returns 0x00 (0000ms, 1199ms total)
T0918 002:051 JLINK_WriteReg(R3, 0x00000000)  returns 0x00 (0000ms, 1199ms total)
T0918 002:051 JLINK_WriteReg(R4, 0x00000000)  returns 0x00 (0000ms, 1199ms total)
T0918 002:051 JLINK_WriteReg(R5, 0x00000000)  returns 0x00 (0000ms, 1199ms total)
T0918 002:051 JLINK_WriteReg(R6, 0x00000000)  returns 0x00 (0001ms, 1199ms total)
T0918 002:052 JLINK_WriteReg(R7, 0x00000000)  returns 0x00 (0000ms, 1200ms total)
T0918 002:052 JLINK_WriteReg(R8, 0x00000000)  returns 0x00 (0000ms, 1200ms total)
T0918 002:052 JLINK_WriteReg(R9, 0x10000174)  returns 0x00 (0000ms, 1200ms total)
T0918 002:052 JLINK_WriteReg(R10, 0x00000000)  returns 0x00 (0000ms, 1200ms total)
T0918 002:052 JLINK_WriteReg(R11, 0x00000000)  returns 0x00 (0000ms, 1200ms total)
T0918 002:052 JLINK_WriteReg(R12, 0x00000000)  returns 0x00 (0000ms, 1200ms total)
T0918 002:052 JLINK_WriteReg(R13, 0x10000800)  returns 0x00 (0000ms, 1200ms total)
T0918 002:052 JLINK_WriteReg(R14, 0x10000001)  returns 0x00 (0000ms, 1200ms total)
T0918 002:052 JLINK_WriteReg(R15, 0x10000020)  returns 0x00 (0000ms, 1200ms total)
T0918 002:052 JLINK_WriteReg(XPSR, 0x01000000)  returns 0x00 (0000ms, 1200ms total)
T0918 002:052 JLINK_WriteReg(MSP, 0x10000800)  returns 0x00 (0000ms, 1200ms total)
T0918 002:052 JLINK_WriteReg(PSP, 0x10000800)  returns 0x00 (0000ms, 1200ms total)
T0918 002:052 JLINK_WriteReg(CFBP, 0x00000000)  returns 0x00 (0000ms, 1200ms total)
T0918 002:052 JLINK_SetBPEx(Addr = 0x10000000, Type = 0xFFFFFFF2)  returns 0x00000010 (0000ms, 1200ms total)
T0918 002:052 JLINK_Go() -- CPU_WriteMem(4 bytes @ 0xE0002008) -- CPU_WriteMem(4 bytes @ 0xE000200C) -- CPU_WriteMem(4 bytes @ 0xE0002010) -- CPU_WriteMem(4 bytes @ 0xE0002014) -- CPU_WriteMem(4 bytes @ 0xE0002018) -- CPU_WriteMem(4 bytes @ 0xE000201C) (0010ms, 1200ms total)
T0918 002:062 JLINK_IsHalted()  returns TRUE (0005ms, 1210ms total)
T0918 002:067 JLINK_ReadReg(R15)  returns 0x10000000 (0000ms, 1210ms total)
T0918 002:067 JLINK_ClrBPEx(BPHandle = 0x00000010)  returns 0x00 (0000ms, 1210ms total)
T0918 002:067 JLINK_ReadReg(R0)  returns 0x00000001 (0000ms, 1210ms total)
T0918 002:067 JLINK_WriteReg(R0, 0x00007000)  returns 0x00 (0000ms, 1210ms total)
T0918 002:067 JLINK_WriteReg(R1, 0x00001000)  returns 0x00 (0000ms, 1210ms total)
T0918 002:067 JLINK_WriteReg(R2, 0x000000FF)  returns 0x00 (0000ms, 1210ms total)
T0918 002:067 JLINK_WriteReg(R3, 0x00000000)  returns 0x00 (0000ms, 1210ms total)
T0918 002:067 JLINK_WriteReg(R4, 0x00000000)  returns 0x00 (0000ms, 1210ms total)
T0918 002:067 JLINK_WriteReg(R5, 0x00000000)  returns 0x00 (0000ms, 1210ms total)
T0918 002:067 JLINK_WriteReg(R6, 0x00000000)  returns 0x00 (0000ms, 1210ms total)
T0918 002:067 JLINK_WriteReg(R7, 0x00000000)  returns 0x00 (0000ms, 1210ms total)
T0918 002:067 JLINK_WriteReg(R8, 0x00000000)  returns 0x00 (0000ms, 1210ms total)
T0918 002:067 JLINK_WriteReg(R9, 0x10000174)  returns 0x00 (0000ms, 1210ms total)
T0918 002:067 JLINK_WriteReg(R10, 0x00000000)  returns 0x00 (0000ms, 1210ms total)
T0918 002:067 JLINK_WriteReg(R11, 0x00000000)  returns 0x00 (0000ms, 1210ms total)
T0918 002:067 JLINK_WriteReg(R12, 0x00000000)  returns 0x00 (0000ms, 1210ms total)
T0918 002:067 JLINK_WriteReg(R13, 0x10000800)  returns 0x00 (0000ms, 1210ms total)
T0918 002:067 JLINK_WriteReg(R14, 0x10000001)  returns 0x00 (0001ms, 1210ms total)
T0918 002:068 JLINK_WriteReg(R15, 0x100000AE)  returns 0x00 (0000ms, 1211ms total)
T0918 002:068 JLINK_WriteReg(XPSR, 0x01000000)  returns 0x00 (0000ms, 1211ms total)
T0918 002:068 JLINK_WriteReg(MSP, 0x10000800)  returns 0x00 (0000ms, 1211ms total)
T0918 002:068 JLINK_WriteReg(PSP, 0x10000800)  returns 0x00 (0000ms, 1211ms total)
T0918 002:068 JLINK_WriteReg(CFBP, 0x00000000)  returns 0x00 (0000ms, 1211ms total)
T0918 002:068 JLINK_SetBPEx(Addr = 0x10000000, Type = 0xFFFFFFF2)  returns 0x00000011 (0000ms, 1211ms total)
T0918 002:068 JLINK_Go() -- CPU_WriteMem(4 bytes @ 0xE0002008) -- CPU_WriteMem(4 bytes @ 0xE000200C) -- CPU_WriteMem(4 bytes @ 0xE0002010) -- CPU_WriteMem(4 bytes @ 0xE0002014) -- CPU_WriteMem(4 bytes @ 0xE0002018) -- CPU_WriteMem(4 bytes @ 0xE000201C) (0010ms, 1211ms total)
T0918 002:078 JLINK_IsHalted()  returns FALSE (0001ms, 1221ms total)
T0918 002:130 JLINK_IsHalted()  returns FALSE (0001ms, 1221ms total)
T0918 002:182 JLINK_IsHalted()  returns TRUE (0004ms, 1221ms total)
T0918 002:186 JLINK_ReadReg(R15)  returns 0x10000000 (0000ms, 1221ms total)
T0918 002:186 JLINK_ClrBPEx(BPHandle = 0x00000011)  returns 0x00 (0001ms, 1221ms total)
T0918 002:187 JLINK_ReadReg(R0)  returns 0x00000000 (0000ms, 1222ms total)
T0918 002:187 JLINK_WriteReg(R0, 0x00008000)  returns 0x00 (0001ms, 1222ms total)
T0918 002:188 JLINK_WriteReg(R1, 0x00001000)  returns 0x00 (0000ms, 1223ms total)
T0918 002:188 JLINK_WriteReg(R2, 0x000000FF)  returns 0x00 (0000ms, 1223ms total)
T0918 002:188 JLINK_WriteReg(R3, 0x00000000)  returns 0x00 (0000ms, 1223ms total)
T0918 002:188 JLINK_WriteReg(R4, 0x00000000)  returns 0x00 (0000ms, 1223ms total)
T0918 002:188 JLINK_WriteReg(R5, 0x00000000)  returns 0x00 (0000ms, 1223ms total)
T0918 002:188 JLINK_WriteReg(R6, 0x00000000)  returns 0x00 (0000ms, 1223ms total)
T0918 002:188 JLINK_WriteReg(R7, 0x00000000)  returns 0x00 (0000ms, 1223ms total)
T0918 002:188 JLINK_WriteReg(R8, 0x00000000)  returns 0x00 (0000ms, 1223ms total)
T0918 002:188 JLINK_WriteReg(R9, 0x10000174)  returns 0x00 (0000ms, 1223ms total)
T0918 002:188 JLINK_WriteReg(R10, 0x00000000)  returns 0x00 (0000ms, 1223ms total)
T0918 002:188 JLINK_WriteReg(R11, 0x00000000)  returns 0x00 (0000ms, 1223ms total)
T0918 002:188 JLINK_WriteReg(R12, 0x00000000)  returns 0x00 (0000ms, 1223ms total)
T0918 002:188 JLINK_WriteReg(R13, 0x10000800)  returns 0x00 (0000ms, 1223ms total)
T0918 002:188 JLINK_WriteReg(R14, 0x10000001)  returns 0x00 (0000ms, 1223ms total)
T0918 002:188 JLINK_WriteReg(R15, 0x10000020)  returns 0x00 (0000ms, 1223ms total)
T0918 002:188 JLINK_WriteReg(XPSR, 0x01000000)  returns 0x00 (0000ms, 1223ms total)
T0918 002:188 JLINK_WriteReg(MSP, 0x10000800)  returns 0x00 (0000ms, 1223ms total)
T0918 002:188 JLINK_WriteReg(PSP, 0x10000800)  returns 0x00 (0000ms, 1223ms total)
T0918 002:188 JLINK_WriteReg(CFBP, 0x00000000)  returns 0x00 (0000ms, 1223ms total)
T0918 002:188 JLINK_SetBPEx(Addr = 0x10000000, Type = 0xFFFFFFF2)  returns 0x00000012 (0000ms, 1223ms total)
T0918 002:188 JLINK_Go() -- CPU_WriteMem(4 bytes @ 0xE0002008) -- CPU_WriteMem(4 bytes @ 0xE000200C) -- CPU_WriteMem(4 bytes @ 0xE0002010) -- CPU_WriteMem(4 bytes @ 0xE0002014) -- CPU_WriteMem(4 bytes @ 0xE0002018) -- CPU_WriteMem(4 bytes @ 0xE000201C) (0010ms, 1223ms total)
T0918 002:198 JLINK_IsHalted()  returns TRUE (0005ms, 1233ms total)
T0918 002:203 JLINK_ReadReg(R15)  returns 0x10000000 (0000ms, 1233ms total)
T0918 002:203 JLINK_ClrBPEx(BPHandle = 0x00000012)  returns 0x00 (0000ms, 1233ms total)
T0918 002:203 JLINK_ReadReg(R0)  returns 0x00000001 (0000ms, 1233ms total)
T0918 002:203 JLINK_WriteReg(R0, 0x00008000)  returns 0x00 (0000ms, 1233ms total)
T0918 002:203 JLINK_WriteReg(R1, 0x00001000)  returns 0x00 (0000ms, 1233ms total)
T0918 002:203 JLINK_WriteReg(R2, 0x000000FF)  returns 0x00 (0000ms, 1233ms total)
T0918 002:203 JLINK_WriteReg(R3, 0x00000000)  returns 0x00 (0000ms, 1233ms total)
T0918 002:203 JLINK_WriteReg(R4, 0x00000000)  returns 0x00 (0000ms, 1233ms total)
T0918 002:203 JLINK_WriteReg(R5, 0x00000000)  returns 0x00 (0001ms, 1233ms total)
T0918 002:204 JLINK_WriteReg(R6, 0x00000000)  returns 0x00 (0000ms, 1234ms total)
T0918 002:204 JLINK_WriteReg(R7, 0x00000000)  returns 0x00 (0000ms, 1234ms total)
T0918 002:204 JLINK_WriteReg(R8, 0x00000000)  returns 0x00 (0000ms, 1234ms total)
